! Touchstone file from project Dipole
! Exported from ElectronicsDesktop 2018.0.0
# GHZ S DB R 50.000000
! Modal data exported
! Port[1] = 1:1
1                -0.0584989       -15.5021         
1.001            -0.0586959       -15.5218         
1.002            -0.0588935       -15.5415         
1.003            -0.0590918       -15.5612         
1.004            -0.0592907       -15.581          
1.005            -0.0594903       -15.6007         
1.006            -0.0596905       -15.6205         
1.007            -0.0598914       -15.6403         
1.008            -0.060093        -15.6601         
1.009            -0.0602952       -15.6799         
1.01             -0.0604981       -15.6997         
1.011            -0.0607016       -15.7196         
1.012            -0.0609059       -15.7394         
1.013            -0.0611108       -15.7593         
1.014            -0.0613164       -15.7792         
1.015            -0.0615226       -15.7991         
1.016            -0.0617296       -15.819          
1.017            -0.0619372       -15.839          
1.018            -0.0621455       -15.8589         
1.019            -0.0623545       -15.8789         
1.02             -0.0625642       -15.8989         
1.021            -0.0627746       -15.9189         
1.022            -0.0629857       -15.9389         
1.023            -0.0631975       -15.959          
1.024            -0.06341         -15.979          
1.025            -0.0636232       -15.9991         
1.026            -0.0638371       -16.0192         
1.027            -0.0640517       -16.0393         
1.028            -0.064267        -16.0594         
1.029            -0.0644831       -16.0796         
1.03             -0.0646998       -16.0998         
1.031            -0.0649173       -16.1199         
1.032            -0.0651355       -16.1401         
1.033            -0.0653544       -16.1603         
1.034            -0.0655741       -16.1806         
1.035            -0.0657945       -16.2008         
1.036            -0.0660156       -16.2211         
1.037            -0.0662375       -16.2414         
1.038            -0.0664601       -16.2617         
1.039            -0.0666834       -16.282          
1.04             -0.0669075       -16.3023         
1.041            -0.0671324       -16.3227         
1.042            -0.0673579       -16.343          
1.043            -0.0675843       -16.3634         
1.044            -0.0678114       -16.3838         
1.045            -0.0680392       -16.4042         
1.046            -0.0682679       -16.4247         
1.047            -0.0684972       -16.4451         
1.048            -0.0687274       -16.4656         
1.049            -0.0689583       -16.4861         
1.05             -0.06919         -16.5066         
1.051            -0.0694225       -16.5272         
1.052            -0.0696557       -16.5477         
1.053            -0.0698898       -16.5683         
1.054            -0.0701246       -16.5888         
1.055            -0.0703602       -16.6094         
1.056            -0.0705966       -16.6301         
1.057            -0.0708338       -16.6507         
1.058            -0.0710718       -16.6713         
1.059            -0.0713106       -16.692          
1.06             -0.0715502       -16.7127         
1.061            -0.0717905       -16.7334         
1.062            -0.0720318       -16.7541         
1.063            -0.0722738       -16.7749         
1.064            -0.0725166       -16.7957         
1.065            -0.0727603       -16.8164         
1.066            -0.0730047       -16.8372         
1.067            -0.07325         -16.8581         
1.068            -0.0734961       -16.8789         
1.069            -0.0737431       -16.8998         
1.07             -0.0739909       -16.9206         
1.071            -0.0742395       -16.9415         
1.072            -0.074489        -16.9624         
1.073            -0.0747393       -16.9834         
1.074            -0.0749904       -17.0043         
1.075            -0.0752424       -17.0253         
1.076            -0.0754953       -17.0463         
1.077            -0.075749        -17.0673         
1.078            -0.0760036       -17.0883         
1.079            -0.076259        -17.1094         
1.08             -0.0765153       -17.1304         
1.081            -0.0767725       -17.1515         
1.082            -0.0770305       -17.1726         
1.083            -0.0772894       -17.1937         
1.084            -0.0775492       -17.2149         
1.085            -0.0778099       -17.236          
1.086            -0.0780714       -17.2572         
1.087            -0.0783339       -17.2784         
1.088            -0.0785972       -17.2996         
1.089            -0.0788615       -17.3209         
1.09             -0.0791266       -17.3421         
1.091            -0.0793926       -17.3634         
1.092            -0.0796596       -17.3847         
1.093            -0.0799274       -17.406          
1.094            -0.0801962       -17.4273         
1.095            -0.0804659       -17.4487         
1.096            -0.0807365       -17.4701         
1.097            -0.081008        -17.4915         
1.098            -0.0812805       -17.5129         
1.099            -0.0815539       -17.5343         
1.1              -0.0818282       -17.5558         
1.101            -0.0821034       -17.5773         
1.102            -0.0823796       -17.5988         
1.103            -0.0826568       -17.6203         
1.104            -0.0829349       -17.6418         
1.105            -0.0832139       -17.6634         
1.106            -0.0834939       -17.6849         
1.107            -0.0837749       -17.7065         
1.108            -0.0840568       -17.7282         
1.109            -0.0843397       -17.7498         
1.11             -0.0846235       -17.7715         
1.111            -0.0849083       -17.7931         
1.112            -0.0851942       -17.8148         
1.113            -0.0854809       -17.8366         
1.114            -0.0857687       -17.8583         
1.115            -0.0860575       -17.8801         
1.116            -0.0863472       -17.9018         
1.117            -0.086638        -17.9236         
1.118            -0.0869297       -17.9455         
1.119            -0.0872225       -17.9673         
1.12             -0.0875163       -17.9892         
1.121            -0.0878111       -18.0111         
1.122            -0.0881069       -18.033          
1.123            -0.0884037       -18.0549         
1.124            -0.0887015       -18.0769         
1.125            -0.0890004       -18.0988         
1.126            -0.0893003       -18.1208         
1.127            -0.0896012       -18.1428         
1.128            -0.0899032       -18.1649         
1.129            -0.0902062       -18.1869         
1.13             -0.0905103       -18.209          
1.131            -0.0908154       -18.2311         
1.132            -0.0911216       -18.2532         
1.133            -0.0914288       -18.2754         
1.134            -0.0917371       -18.2975         
1.135            -0.0920465       -18.3197         
1.136            -0.092357        -18.3419         
1.137            -0.0926685       -18.3642         
1.138            -0.0929811       -18.3864         
1.139            -0.0932948       -18.4087         
1.14             -0.0936096       -18.431          
1.141            -0.0939254       -18.4533         
1.142            -0.0942424       -18.4756         
1.143            -0.0945605       -18.498          
1.144            -0.0948797       -18.5204         
1.145            -0.0951999       -18.5428         
1.146            -0.0955214       -18.5652         
1.147            -0.0958439       -18.5877         
1.148            -0.0961675       -18.6102         
1.149            -0.0964923       -18.6327         
1.15             -0.0968182       -18.6552         
1.151            -0.0971453       -18.6777         
1.152            -0.0974735       -18.7003         
1.153            -0.0978028       -18.7229         
1.154            -0.0981333       -18.7455         
1.155            -0.098465        -18.7681         
1.156            -0.0987978       -18.7908         
1.157            -0.0991317       -18.8135         
1.158            -0.0994669       -18.8362         
1.159            -0.0998032       -18.8589         
1.16             -0.100141        -18.8816         
1.161            -0.100479        -18.9044         
1.162            -0.100819        -18.9272         
1.163            -0.10116         -18.95           
1.164            -0.101503        -18.9728         
1.165            -0.101846        -18.9957         
1.166            -0.102191        -19.0186         
1.167            -0.102537        -19.0415         
1.168            -0.102884        -19.0644         
1.169            -0.103232        -19.0874         
1.17             -0.103581        -19.1104         
1.171            -0.103932        -19.1334         
1.172            -0.104284        -19.1564         
1.173            -0.104638        -19.1795         
1.174            -0.104992        -19.2026         
1.175            -0.105348        -19.2257         
1.176            -0.105705        -19.2488         
1.177            -0.106063        -19.2719         
1.178            -0.106423        -19.2951         
1.179            -0.106783        -19.3183         
1.18             -0.107145        -19.3415         
1.181            -0.107509        -19.3648         
1.182            -0.107873        -19.388          
1.183            -0.108239        -19.4113         
1.184            -0.108607        -19.4347         
1.185            -0.108975        -19.458          
1.186            -0.109345        -19.4814         
1.187            -0.109716        -19.5048         
1.188            -0.110088        -19.5282         
1.189            -0.110462        -19.5516         
1.19             -0.110837        -19.5751         
1.191            -0.111214        -19.5986         
1.192            -0.111592        -19.6221         
1.193            -0.111971        -19.6456         
1.194            -0.112351        -19.6692         
1.195            -0.112733        -19.6928         
1.196            -0.113116        -19.7164         
1.197            -0.113501        -19.7401         
1.198            -0.113887        -19.7637         
1.199            -0.114274        -19.7874         
1.2              -0.114663        -19.8111         
1.201            -0.115053        -19.8349         
1.202            -0.115444        -19.8586         
1.203            -0.115837        -19.8824         
1.204            -0.116231        -19.9063         
1.205            -0.116627        -19.9301         
1.206            -0.117024        -19.954          
1.207            -0.117423        -19.9779         
1.208            -0.117822        -20.0018         
1.209            -0.118224        -20.0258         
1.21             -0.118627        -20.0497         
1.211            -0.119031        -20.0737         
1.212            -0.119437        -20.0978         
1.213            -0.119844        -20.1218         
1.214            -0.120252        -20.1459         
1.215            -0.120662        -20.17           
1.216            -0.121074        -20.1941         
1.217            -0.121487        -20.2183         
1.218            -0.121902        -20.2425         
1.219            -0.122318        -20.2667         
1.22             -0.122735        -20.2909         
1.221            -0.123154        -20.3152         
1.222            -0.123575        -20.3395         
1.223            -0.123997        -20.3638         
1.224            -0.12442         -20.3882         
1.225            -0.124845        -20.4126         
1.226            -0.125272        -20.437          
1.227            -0.1257          -20.4614         
1.228            -0.12613         -20.4858         
1.229            -0.126561        -20.5103         
1.23             -0.126994        -20.5348         
1.231            -0.127428        -20.5594         
1.232            -0.127864        -20.5839         
1.233            -0.128302        -20.6085         
1.234            -0.128741        -20.6332         
1.235            -0.129182        -20.6578         
1.236            -0.129624        -20.6825         
1.237            -0.130068        -20.7072         
1.238            -0.130514        -20.7319         
1.239            -0.130961        -20.7567         
1.24             -0.13141         -20.7815         
1.241            -0.13186         -20.8063         
1.242            -0.132312        -20.8311         
1.243            -0.132766        -20.856          
1.244            -0.133221        -20.8809         
1.245            -0.133678        -20.9058         
1.246            -0.134137        -20.9308         
1.247            -0.134597        -20.9558         
1.248            -0.135059        -20.9808         
1.249            -0.135523        -21.0058         
1.25             -0.135988        -21.0309         
1.251            -0.136455        -21.056          
1.252            -0.136924        -21.0811         
1.253            -0.137395        -21.1063         
1.254            -0.137867        -21.1315         
1.255            -0.138341        -21.1567         
1.256            -0.138817        -21.182          
1.257            -0.139294        -21.2072         
1.258            -0.139773        -21.2325         
1.259            -0.140254        -21.2579         
1.26             -0.140737        -21.2832         
1.261            -0.141222        -21.3086         
1.262            -0.141708        -21.3341         
1.263            -0.142196        -21.3595         
1.264            -0.142686        -21.385          
1.265            -0.143178        -21.4105         
1.266            -0.143671        -21.4361         
1.267            -0.144166        -21.4616         
1.268            -0.144663        -21.4872         
1.269            -0.145162        -21.5129         
1.27             -0.145663        -21.5385         
1.271            -0.146166        -21.5642         
1.272            -0.14667         -21.5899         
1.273            -0.147177        -21.6157         
1.274            -0.147685        -21.6415         
1.275            -0.148195        -21.6673         
1.276            -0.148707        -21.6931         
1.277            -0.149221        -21.719          
1.278            -0.149737        -21.7449         
1.279            -0.150254        -21.7709         
1.28             -0.150774        -21.7968         
1.281            -0.151296        -21.8228         
1.282            -0.151819        -21.8489         
1.283            -0.152344        -21.8749         
1.284            -0.152872        -21.901          
1.285            -0.153401        -21.9272         
1.286            -0.153932        -21.9533         
1.287            -0.154466        -21.9795         
1.288            -0.155001        -22.0057         
1.289            -0.155538        -22.032          
1.29             -0.156077        -22.0583         
1.291            -0.156619        -22.0846         
1.292            -0.157162        -22.1109         
1.293            -0.157707        -22.1373         
1.294            -0.158255        -22.1637         
1.295            -0.158804        -22.1902         
1.296            -0.159355        -22.2166         
1.297            -0.159909        -22.2431         
1.298            -0.160465        -22.2697         
1.299            -0.161022        -22.2963         
1.3              -0.161582        -22.3229         
1.301            -0.162144        -22.3495         
1.302            -0.162708        -22.3762         
1.303            -0.163274        -22.4029         
1.304            -0.163842        -22.4296         
1.305            -0.164412        -22.4564         
1.306            -0.164985        -22.4832         
1.307            -0.165559        -22.51           
1.308            -0.166136        -22.5369         
1.309            -0.166715        -22.5638         
1.31             -0.167296        -22.5907         
1.311            -0.167879        -22.6177         
1.312            -0.168465        -22.6447         
1.313            -0.169052        -22.6717         
1.314            -0.169642        -22.6988         
1.315            -0.170234        -22.7259         
1.316            -0.170829        -22.7531         
1.317            -0.171425        -22.7802         
1.318            -0.172024        -22.8074         
1.319            -0.172625        -22.8347         
1.32             -0.173229        -22.862          
1.321            -0.173834        -22.8893         
1.322            -0.174442        -22.9166         
1.323            -0.175052        -22.944          
1.324            -0.175665        -22.9714         
1.325            -0.17628         -22.9989         
1.326            -0.176897        -23.0263         
1.327            -0.177517        -23.0539         
1.328            -0.178139        -23.0814         
1.329            -0.178763        -23.109          
1.33             -0.179389        -23.1366         
1.331            -0.180018        -23.1643         
1.332            -0.18065         -23.192          
1.333            -0.181284        -23.2197         
1.334            -0.18192         -23.2475         
1.335            -0.182559        -23.2753         
1.336            -0.1832          -23.3031         
1.337            -0.183843        -23.331          
1.338            -0.184489        -23.3589         
1.339            -0.185138        -23.3868         
1.34             -0.185789        -23.4148         
1.341            -0.186442        -23.4428         
1.342            -0.187098        -23.4709         
1.343            -0.187756        -23.499          
1.344            -0.188417        -23.5271         
1.345            -0.189081        -23.5552         
1.346            -0.189747        -23.5834         
1.347            -0.190415        -23.6117         
1.348            -0.191086        -23.64           
1.349            -0.19176         -23.6683         
1.35             -0.192436        -23.6966         
1.351            -0.193115        -23.725          
1.352            -0.193797        -23.7534         
1.353            -0.194481        -23.7819         
1.354            -0.195168        -23.8104         
1.355            -0.195857        -23.8389         
1.356            -0.196549        -23.8675         
1.357            -0.197244        -23.8961         
1.358            -0.197941        -23.9247         
1.359            -0.198641        -23.9534         
1.36             -0.199344        -23.9821         
1.361            -0.20005         -24.0109         
1.362            -0.200758        -24.0397         
1.363            -0.201469        -24.0685         
1.364            -0.202183        -24.0974         
1.365            -0.202899        -24.1263         
1.366            -0.203618        -24.1552         
1.367            -0.20434         -24.1842         
1.368            -0.205065        -24.2133         
1.369            -0.205793        -24.2423         
1.37             -0.206523        -24.2714         
1.371            -0.207257        -24.3006         
1.372            -0.207993        -24.3298         
1.373            -0.208732        -24.359          
1.374            -0.209474        -24.3883         
1.375            -0.210218        -24.4176         
1.376            -0.210966        -24.4469         
1.377            -0.211717        -24.4763         
1.378            -0.21247         -24.5057         
1.379            -0.213226        -24.5352         
1.38             -0.213986        -24.5647         
